! eps=1 microstrip MoM demo
! Schur 2-port S-param extraction
! Microstrip: L=20.00mm W=3.00mm h=1.60mm eps_eff=1.000
! nx=40 gauss=4 z0_ref=50.0ohm
! Created by mom Touchstone writer
!
# GHz S RI R 50.0
5.000000e-01 7.847402e-01 3.001309e-01 -1.264637e-01 2.279005e-01 -1.264637e-01 2.279005e-01 7.847402e-01 3.001309e-01
1.000000e+00 4.921810e-01 3.687504e-01 -2.114172e-01 2.069727e-01 -2.114172e-01 2.069727e-01 4.921810e-01 3.687504e-01
1.500000e+00 2.735857e-01 3.829487e-01 -1.976123e-01 1.366287e-01 -1.976123e-01 1.366287e-01 2.735857e-01 3.829487e-01
2.000000e+00 1.059003e-01 3.896623e-01 -1.578206e-01 8.407819e-02 -1.578206e-01 8.407819e-02 1.059003e-01 3.896623e-01
2.500000e+00 -2.819411e-02 3.953522e-01 -1.219030e-01 5.693963e-02 -1.219030e-01 5.693963e-02 -2.819411e-02 3.953522e-01
3.000000e+00 -1.329166e-01 4.069024e-01 -9.118445e-02 5.488491e-02 -9.118445e-02 5.488491e-02 -1.329166e-01 4.069024e-01
3.500000e+00 -1.975327e-01 4.161970e-01 -4.796768e-02 6.239892e-02 -4.796768e-02 6.239892e-02 -1.975327e-01 4.161970e-01
4.000000e+00 -2.444163e-01 3.983094e-01 -7.814011e-03 4.922148e-02 -7.814011e-03 4.922148e-02 -2.444163e-01 3.983094e-01
4.500000e+00 -2.974024e-01 3.738024e-01 1.096183e-02 3.247763e-02 1.096183e-02 3.247763e-02 -2.974024e-01 3.738024e-01
5.000000e+00 -3.492067e-01 3.543155e-01 1.981853e-02 2.160008e-02 1.981853e-02 2.160008e-02 -3.492067e-01 3.543155e-01
5.500000e+00 -3.962965e-01 3.391773e-01 2.533177e-02 1.434646e-02 2.533177e-02 1.434646e-02 -3.962965e-01 3.391773e-01
6.000000e+00 -4.386189e-01 3.273995e-01 2.962802e-02 8.345119e-03 2.962802e-02 8.345119e-03 -4.386189e-01 3.273995e-01
6.500000e+00 -4.766437e-01 3.188304e-01 3.327484e-02 1.958583e-03 3.327484e-02 1.958583e-03 -4.766437e-01 3.188304e-01
7.000000e+00 -5.103458e-01 3.137880e-01 3.587792e-02 -6.040276e-03 3.587792e-02 -6.040276e-03 -5.103458e-01 3.137880e-01
7.500000e+00 -5.387153e-01 3.123662e-01 3.598316e-02 -1.622231e-02 3.598316e-02 -1.622231e-02 -5.387153e-01 3.123662e-01
8.000000e+00 -5.600385e-01 3.131901e-01 3.145613e-02 -2.746847e-02 3.145613e-02 -2.746847e-02 -5.600385e-01 3.131901e-01
8.500000e+00 -5.739191e-01 3.127736e-01 2.152615e-02 -3.642452e-02 2.152615e-02 -3.642452e-02 -5.739191e-01 3.127736e-01
9.000000e+00 -5.832478e-01 3.079105e-01 8.760739e-03 -3.993745e-02 8.760739e-03 -3.993745e-02 -5.832478e-01 3.079105e-01
9.500000e+00 -5.921528e-01 2.987292e-01 -2.982774e-03 -3.812914e-02 -2.982774e-03 -3.812914e-02 -5.921528e-01 2.987292e-01
1.000000e+01 -6.027219e-01 2.876216e-01 -1.183125e-02 -3.333367e-02 -1.183125e-02 -3.333367e-02 -6.027219e-01 2.876216e-01
